Logging started @ 2025-03-09 13:45
DLL Compiled: Jul 27 2021 14:53:00
T9294 1525:174.383   Firmware: J-Link STLink V21 compiled Aug 12 2019 10:29:20
T9294 1525:175.020   Firmware: J-Link STLink V21 compiled Aug 12 2019 10:29:20
T9294 1525:190.523   Hardware: V1.00
T9294 1525:190.578   S/N: 775163896
T9294 1525:190.583   OEM: SEGGER
T9294 1525:190.588   Feature(s): None
T9294 1525:191.885   TELNET listener socket opened on port 19021
T9294 1525:192.024   WEBSRV Starting webserver
T9294 1525:192.204   WEBSRV Webserver running on local port 19080
T9294 1525:198.564 - 27.701ms returns "O.K."
T9294 1525:198.991 JLINK_ExecCommand("ProjectFile = D:\kod\git\project_arm\CortexM4\BlackPill_STM32F411CE\13_ADC1\settings\13_ADC1_Debug.jlink", ...). 
T9294 1525:209.053   Ref file found at: C:\iar8509\arm\bin\JLinkDevices.ref
T9294 1525:209.262   XML referenced by ref file: C:\Program Files\SEGGER\JLink\JLinkDevices.xml
T9294 1525:210.509   C:\Program Files\SEGGER\JLink\JLinkDevices.xml evaluated successfully.
T9294 1525:233.427 - 34.442ms returns 0x00
T9294 1525:233.582 JLINK_ExecCommand("device = STM32F411CE", ...). 
T9294 1525:234.099   Device "STM32F411CE" selected.
T9294 1525:234.396 - 0.805ms returns 0x00
T9294 1525:234.412 JLINK_GetDLLVersion()
T9294 1525:234.417 - 0.005ms returns 75200
T9294 1525:234.440 JLINK_GetCompileDateTime()
T9294 1525:234.445 - 0.005ms
T9294 1525:234.493 JLINK_GetFirmwareString(...)
T9294 1525:234.499 - 0.006ms
T9294 1525:234.523 JLINK_TIF_Select(JLINKARM_TIF_SWD)
T9294 1525:235.786 - 1.266ms returns 0x00
T9294 1525:235.843 JLINK_SelectDeviceFamily(14)
T9294 1525:235.855 - 0.012ms
T9294 1525:235.883 JLINK_SetSpeed(1000)
T9294 1525:236.318 - 0.439ms
T9294 1525:236.346 JLINK_SetResetType(JLINKARM_RESET_TYPE_NORMAL)
T9294 1525:236.352 - 0.006ms returns JLINKARM_RESET_TYPE_NORMAL
T9294 1525:236.360 JLINK_ExecCommand("SetResetPulseLen = 200", ...). 
T9294 1525:236.367 - 0.001ms returns 0x14
T9294 1525:236.373 JLINK_SetResetDelay(0)
T9294 1525:236.378 - 0.004ms
T9294 1525:236.383 JLINK_ResetPullsRESET(ON)
T9294 1525:236.387 - 0.004ms
T9294 1525:236.393 JLINK_Reset()
T9294 1525:236.728   InitTarget() start
T9294 1525:236.746    J-Link Script File: Executing InitTarget()
T9294 1525:247.820   InitTarget() end
T9294 1525:249.148   Found SW-DP with ID 0x2BA01477
T9294 1525:251.256   Old FW that does not support reading DPIDR via DAP jobs
T9294 1525:252.551   DPv0 detected
T9294 1525:252.568   Scanning AP map to find all available APs
T9294 1525:253.574   AP[1]: Stopped AP scan as end of AP map has been reached
T9294 1525:253.591   AP[0]: AHB-AP (IDR: 0x24770011)
T9294 1525:253.606   Iterating through AP map to find AHB-AP to use
T9294 1525:255.229   AP[0]: Core found
T9294 1525:255.248   AP[0]: AHB-AP ROM base: 0xE00FF000
T9294 1525:256.387   CPUID register: 0x410FC241. Implementer code: 0x41 (ARM)
T9294 1525:256.524   Found Cortex-M4 r0p1, Little endian.
T9294 1525:358.842   -- Max. mem block: 0x00002EA0
T9294 1525:359.481   CPU_ReadMem(4 bytes @ 0xE000EDF0)
T9294 1525:360.769   CPU_ReadMem(4 bytes @ 0xE0002000)
T9294 1525:362.141   FPUnit: 6 code (BP) slots and 2 literal slots
T9294 1525:362.179   CPU_ReadMem(4 bytes @ 0xE000EDFC)
T9294 1525:363.396   CPU_WriteMem(4 bytes @ 0xE000EDFC)
T9294 1525:364.510   CPU_ReadMem(4 bytes @ 0xE0001000)
T9294 1525:365.713   CPU_WriteMem(4 bytes @ 0xE0001000)
T9294 1525:366.841   CPU_ReadMem(4 bytes @ 0xE000ED88)
T9294 1525:367.608   CPU_WriteMem(4 bytes @ 0xE000ED88)
T9294 1525:368.546   CPU_ReadMem(4 bytes @ 0xE000ED88)
T9294 1525:369.296   CPU_WriteMem(4 bytes @ 0xE000ED88)
T9294 1525:370.213   CoreSight components:
T9294 1525:370.264   ROMTbl[0] @ E00FF000
T9294 1525:370.277   CPU_ReadMem(64 bytes @ 0xE00FF000)
T9294 1525:372.017   CPU_ReadMem(32 bytes @ 0xE000EFE0)
T9294 1525:373.281   ROMTbl[0][0]: E000E000, CID: B105E00D, PID: 000BB00C SCS-M7
T9294 1525:373.295   CPU_ReadMem(32 bytes @ 0xE0001FE0)
T9294 1525:374.550   ROMTbl[0][1]: E0001000, CID: B105E00D, PID: 003BB002 DWT
T9294 1525:374.563   CPU_ReadMem(32 bytes @ 0xE0002FE0)
T9294 1525:375.870   ROMTbl[0][2]: E0002000, CID: B105E00D, PID: 002BB003 FPB
T9294 1525:375.888   CPU_ReadMem(32 bytes @ 0xE0000FE0)
T9294 1525:377.048   ROMTbl[0][3]: E0000000, CID: B105E00D, PID: 003BB001 ITM
T9294 1525:377.063   CPU_ReadMem(32 bytes @ 0xE0040FE0)
T9294 1525:378.324   ROMTbl[0][4]: E0040000, CID: B105900D, PID: 000BB9A1 TPIU
T9294 1525:378.339   CPU_ReadMem(32 bytes @ 0xE0041FE0)
T9294 1525:379.608   ROMTbl[0][5]: E0041000, CID: B105900D, PID: 000BB925 ETM
T9294 1525:379.749   CPU is running
T9294 1525:379.771   CPU_WriteMem(4 bytes @ 0xE000EDF0)
T9294 1525:380.603   CPU is running
T9294 1525:380.658   CPU_WriteMem(4 bytes @ 0xE000EDFC)
T9294 1525:381.714   Reset: Halt core after reset via DEMCR.VC_CORERESET.
T9294 1525:382.586   Reset: Reset device via AIRCR.SYSRESETREQ.
T9294 1525:382.609   CPU is running
T9294 1525:382.624   CPU_WriteMem(4 bytes @ 0xE000ED0C)
T9294 1525:436.294   CPU_ReadMem(4 bytes @ 0xE000EDF0)
T9294 1525:437.041   CPU_ReadMem(4 bytes @ 0xE000EDF0)
T9294 1525:437.764   CPU is running
T9294 1525:437.781   CPU_WriteMem(4 bytes @ 0xE000EDF0)
T9294 1525:438.521   CPU is running
T9294 1525:438.578   CPU_WriteMem(4 bytes @ 0xE000EDFC)
T9294 1525:445.264   CPU_ReadMem(4 bytes @ 0xE000EDF0)
T9294 1525:453.245   CPU_WriteMem(4 bytes @ 0xE0002000)
T9294 1525:454.051   CPU_ReadMem(4 bytes @ 0xE000EDFC)
T9294 1525:454.786   CPU_ReadMem(4 bytes @ 0xE0001000)
T9294 1525:455.526 - 219.135ms
T9294 1525:455.772 JLINK_IsHalted()
T9294 1525:455.791 - 0.020ms returns TRUE
T9294 1525:455.806 JLINK_Halt()
T9294 1525:455.815 - 0.010ms returns 0x00
T9294 1525:456.158 JLINK_ReadMemU32(0xE000ED00, 0x1 Items)
T9294 1525:456.197   CPU_ReadMem(4 bytes @ 0xE000ED00)
T9294 1525:456.972   Data:  41 C2 0F 41
T9294 1525:456.994   Debug reg: CPUID
T9294 1525:457.006 - 0.850ms returns 1 (0x1)
T9294 1525:457.031 JLINK_ReadMemU32(0xE00FF000, 0x1 Items)
T9294 1525:457.053   CPU_ReadMem(4 bytes @ 0xE00FF000)
T9294 1525:457.764   Data:  03 F0 F0 FF
T9294 1525:457.777 - 0.747ms returns 1 (0x1)
T9294 1525:457.792 JLINK_ReadMemU32(0xE00FF004, 0x1 Items)
T9294 1525:457.806   CPU_ReadMem(4 bytes @ 0xE00FF004)
T9294 1525:458.516   Data:  03 20 F0 FF
T9294 1525:458.536 - 0.746ms returns 1 (0x1)
T9294 1525:458.560 JLINK_ReadMemU32(0xE00FF008, 0x1 Items)
T9294 1525:458.581   CPU_ReadMem(4 bytes @ 0xE00FF008)
T9294 1525:459.301   Data:  03 30 F0 FF
T9294 1525:459.339 - 0.781ms returns 1 (0x1)
T9294 1525:459.360 JLINK_ReadMemU32(0xE00FF00C, 0x1 Items)
T9294 1525:459.380   CPU_ReadMem(4 bytes @ 0xE00FF00C)
T9294 1525:460.086   Data:  03 10 F0 FF
T9294 1525:460.098 - 0.738ms returns 1 (0x1)
T9294 1525:460.112 JLINK_ReadMemU32(0xE00FF010, 0x1 Items)
T9294 1525:460.125   CPU_ReadMem(4 bytes @ 0xE00FF010)
T9294 1525:461.028   Data:  03 10 F4 FF
T9294 1525:461.041 - 0.930ms returns 1 (0x1)
T9294 1525:461.056 JLINK_ReadMemU32(0xE00FF014, 0x1 Items)
T9294 1525:461.069   CPU_ReadMem(4 bytes @ 0xE00FF014)
T9294 1525:461.742   Data:  03 20 F4 FF
T9294 1525:461.758 - 0.703ms returns 1 (0x1)
T9294 1525:461.772 JLINK_ReadMemU32(0xE00FF018, 0x1 Items)
T9294 1525:461.785   CPU_ReadMem(4 bytes @ 0xE00FF018)
T9294 1525:462.523   Data:  00 00 00 00
T9294 1525:462.539 - 0.767ms returns 1 (0x1)
T9294 1525:462.554 JLINK_ReadMemU32(0xE00FFFD0, 0x1 Items)
T9294 1525:462.567   CPU_ReadMem(4 bytes @ 0xE00FFFD0)
T9294 1525:463.259   Data:  00 00 00 00
T9294 1525:463.274 - 0.721ms returns 1 (0x1)
T9294 1525:463.288 JLINK_ReadMemU32(0xE00FFFD4, 0x1 Items)
T9294 1525:463.302   CPU_ReadMem(4 bytes @ 0xE00FFFD4)
T9294 1525:464.053   Data:  00 00 00 00
T9294 1525:464.066 - 0.778ms returns 1 (0x1)
T9294 1525:464.081 JLINK_ReadMemU32(0xE00FFFD8, 0x1 Items)
T9294 1525:464.094   CPU_ReadMem(4 bytes @ 0xE00FFFD8)
T9294 1525:464.828   Data:  00 00 00 00
T9294 1525:464.842 - 0.762ms returns 1 (0x1)
T9294 1525:464.855 JLINK_ReadMemU32(0xE00FFFDC, 0x1 Items)
T9294 1525:464.867   CPU_ReadMem(4 bytes @ 0xE00FFFDC)
T9294 1525:465.718   Data:  00 00 00 00
T9294 1525:465.732 - 0.878ms returns 1 (0x1)
T9294 1525:465.833 JLINK_ReadMemU32(0xE00FFFE0, 0x1 Items)
T9294 1525:465.846   CPU_ReadMem(4 bytes @ 0xE00FFFE0)
T9294 1525:466.549   Data:  11 00 00 00
T9294 1525:466.562 - 0.729ms returns 1 (0x1)
T9294 1525:466.575 JLINK_ReadMemU32(0xE00FFFE4, 0x1 Items)
T9294 1525:466.587   CPU_ReadMem(4 bytes @ 0xE00FFFE4)
T9294 1525:467.276   Data:  04 00 00 00
T9294 1525:467.306 - 0.732ms returns 1 (0x1)
T9294 1525:467.320 JLINK_ReadMemU32(0xE00FFFE8, 0x1 Items)
T9294 1525:467.333   CPU_ReadMem(4 bytes @ 0xE00FFFE8)
T9294 1525:468.026   Data:  0A 00 00 00
T9294 1525:468.038 - 0.719ms returns 1 (0x1)
T9294 1525:468.051 JLINK_ReadMemU32(0xE00FFFEC, 0x1 Items)
T9294 1525:468.064   CPU_ReadMem(4 bytes @ 0xE00FFFEC)
T9294 1525:468.759   Data:  00 00 00 00
T9294 1525:468.774 - 0.724ms returns 1 (0x1)
T9294 1525:468.788 JLINK_ReadMemU32(0xE00FFFF0, 0x1 Items)
T9294 1525:468.800   CPU_ReadMem(4 bytes @ 0xE00FFFF0)
T9294 1525:469.531   Data:  0D 00 00 00
T9294 1525:469.547 - 0.760ms returns 1 (0x1)
T9294 1525:469.562 JLINK_ReadMemU32(0xE00FFFF4, 0x1 Items)
T9294 1525:469.576   CPU_ReadMem(4 bytes @ 0xE00FFFF4)
T9294 1525:470.260   Data:  10 00 00 00
T9294 1525:470.275 - 0.713ms returns 1 (0x1)
T9294 1525:470.289 JLINK_ReadMemU32(0xE00FFFF8, 0x1 Items)
T9294 1525:470.302   CPU_ReadMem(4 bytes @ 0xE00FFFF8)
T9294 1525:471.070   Data:  05 00 00 00
T9294 1525:471.083 - 0.795ms returns 1 (0x1)
T9294 1525:471.097 JLINK_ReadMemU32(0xE00FFFFC, 0x1 Items)
T9294 1525:471.109   CPU_ReadMem(4 bytes @ 0xE00FFFFC)
T9294 1525:471.788   Data:  B1 00 00 00
T9294 1525:471.800 - 0.704ms returns 1 (0x1)
T9294 1525:471.814 JLINK_ReadMemU32(0xE000EFD0, 0x1 Items)
T9294 1525:471.826   CPU_ReadMem(4 bytes @ 0xE000EFD0)
T9294 1525:472.519   Data:  04 00 00 00
T9294 1525:472.533 - 0.719ms returns 1 (0x1)
T9294 1525:472.546 JLINK_ReadMemU32(0xE000EFD4, 0x1 Items)
T9294 1525:472.558   CPU_ReadMem(4 bytes @ 0xE000EFD4)
T9294 1525:473.270   Data:  00 00 00 00
T9294 1525:473.285 - 0.740ms returns 1 (0x1)
T9294 1525:473.301 JLINK_ReadMemU32(0xE000EFD8, 0x1 Items)
T9294 1525:473.315   CPU_ReadMem(4 bytes @ 0xE000EFD8)
T9294 1525:474.031   Data:  00 00 00 00
T9294 1525:474.048 - 0.748ms returns 1 (0x1)
T9294 1525:474.063 JLINK_ReadMemU32(0xE000EFDC, 0x1 Items)
T9294 1525:474.077   CPU_ReadMem(4 bytes @ 0xE000EFDC)
T9294 1525:474.780   Data:  00 00 00 00
T9294 1525:474.801 - 0.739ms returns 1 (0x1)
T9294 1525:474.815 JLINK_ReadMemU32(0xE000EFE0, 0x1 Items)
T9294 1525:474.827   CPU_ReadMem(4 bytes @ 0xE000EFE0)
T9294 1525:475.521   Data:  0C 00 00 00
T9294 1525:475.535 - 0.721ms returns 1 (0x1)
T9294 1525:475.548 JLINK_ReadMemU32(0xE000EFE4, 0x1 Items)
T9294 1525:475.560   CPU_ReadMem(4 bytes @ 0xE000EFE4)
T9294 1525:476.282   Data:  B0 00 00 00
T9294 1525:476.298 - 0.750ms returns 1 (0x1)
T9294 1525:476.311 JLINK_ReadMemU32(0xE000EFE8, 0x1 Items)
T9294 1525:476.323   CPU_ReadMem(4 bytes @ 0xE000EFE8)
T9294 1525:477.064   Data:  0B 00 00 00
T9294 1525:477.076 - 0.766ms returns 1 (0x1)
T9294 1525:477.090 JLINK_ReadMemU32(0xE000EFEC, 0x1 Items)
T9294 1525:477.102   CPU_ReadMem(4 bytes @ 0xE000EFEC)
T9294 1525:477.798   Data:  00 00 00 00
T9294 1525:477.810 - 0.721ms returns 1 (0x1)
T9294 1525:477.823 JLINK_ReadMemU32(0xE000EFF0, 0x1 Items)
T9294 1525:477.835   CPU_ReadMem(4 bytes @ 0xE000EFF0)
T9294 1525:478.525   Data:  0D 00 00 00
T9294 1525:478.538 - 0.715ms returns 1 (0x1)
T9294 1525:478.550 JLINK_ReadMemU32(0xE000EFF4, 0x1 Items)
T9294 1525:478.562   CPU_ReadMem(4 bytes @ 0xE000EFF4)
T9294 1525:479.191   Data:  E0 00 00 00
T9294 1525:479.206 - 0.656ms returns 1 (0x1)
T9294 1525:479.221 JLINK_ReadMemU32(0xE000EFF8, 0x1 Items)
T9294 1525:479.234   CPU_ReadMem(4 bytes @ 0xE000EFF8)
T9294 1525:479.965   Data:  05 00 00 00
T9294 1525:479.977 - 0.757ms returns 1 (0x1)
T9294 1525:479.990 JLINK_ReadMemU32(0xE000EFFC, 0x1 Items)
T9294 1525:480.003   CPU_ReadMem(4 bytes @ 0xE000EFFC)
T9294 1525:480.827   Data:  B1 00 00 00
T9294 1525:480.840 - 0.850ms returns 1 (0x1)
T9294 1525:480.863 JLINK_ReadMemU32(0xE0001FD0, 0x1 Items)
T9294 1525:480.884   CPU_ReadMem(4 bytes @ 0xE0001FD0)
T9294 1525:481.645   Data:  04 00 00 00
T9294 1525:481.660   Debug reg: DWT_PID4
T9294 1525:481.670 - 0.808ms returns 1 (0x1)
T9294 1525:481.695 JLINK_ReadMemU32(0xE0001FD4, 0x1 Items)
T9294 1525:481.707   CPU_ReadMem(4 bytes @ 0xE0001FD4)
T9294 1525:482.380   Data:  00 00 00 00
T9294 1525:482.397   Debug reg: DWT_PID5
T9294 1525:482.407 - 0.712ms returns 1 (0x1)
T9294 1525:482.423 JLINK_ReadMemU32(0xE0001FD8, 0x1 Items)
T9294 1525:482.435   CPU_ReadMem(4 bytes @ 0xE0001FD8)
T9294 1525:483.109   Data:  00 00 00 00
T9294 1525:483.121   Debug reg: DWT_PID6
T9294 1525:483.130 - 0.707ms returns 1 (0x1)
T9294 1525:483.146 JLINK_ReadMemU32(0xE0001FDC, 0x1 Items)
T9294 1525:483.158   CPU_ReadMem(4 bytes @ 0xE0001FDC)
T9294 1525:483.795   Data:  00 00 00 00
T9294 1525:483.807   Debug reg: DWT_PID7
T9294 1525:483.817 - 0.671ms returns 1 (0x1)
T9294 1525:483.833 JLINK_ReadMemU32(0xE0001FE0, 0x1 Items)
T9294 1525:483.845   CPU_ReadMem(4 bytes @ 0xE0001FE0)
T9294 1525:484.526   Data:  02 00 00 00
T9294 1525:484.551   Debug reg: DWT_PID[0]
T9294 1525:484.561 - 0.729ms returns 1 (0x1)
T9294 1525:484.578 JLINK_ReadMemU32(0xE0001FE4, 0x1 Items)
T9294 1525:484.589   CPU_ReadMem(4 bytes @ 0xE0001FE4)
T9294 1525:485.268   Data:  B0 00 00 00
T9294 1525:485.283   Debug reg: DWT_PID[1]
T9294 1525:485.293 - 0.716ms returns 1 (0x1)
T9294 1525:485.310 JLINK_ReadMemU32(0xE0001FE8, 0x1 Items)
T9294 1525:485.321   CPU_ReadMem(4 bytes @ 0xE0001FE8)
T9294 1525:486.055   Data:  3B 00 00 00
T9294 1525:486.071   Debug reg: DWT_PID[2]
T9294 1525:486.081 - 0.771ms returns 1 (0x1)
T9294 1525:486.098 JLINK_ReadMemU32(0xE0001FEC, 0x1 Items)
T9294 1525:486.109   CPU_ReadMem(4 bytes @ 0xE0001FEC)
T9294 1525:486.776   Data:  00 00 00 00
T9294 1525:486.788   Debug reg: DWT_PID[3]
T9294 1525:486.798 - 0.700ms returns 1 (0x1)
T9294 1525:486.814 JLINK_ReadMemU32(0xE0001FF0, 0x1 Items)
T9294 1525:486.825   CPU_ReadMem(4 bytes @ 0xE0001FF0)
T9294 1525:487.508   Data:  0D 00 00 00
T9294 1525:487.524   Debug reg: DWT_CID[0]
T9294 1525:487.534 - 0.720ms returns 1 (0x1)
T9294 1525:487.550 JLINK_ReadMemU32(0xE0001FF4, 0x1 Items)
T9294 1525:487.561   CPU_ReadMem(4 bytes @ 0xE0001FF4)
T9294 1525:488.252   Data:  E0 00 00 00
T9294 1525:488.264   Debug reg: DWT_CID[1]
T9294 1525:488.274 - 0.725ms returns 1 (0x1)
T9294 1525:488.290 JLINK_ReadMemU32(0xE0001FF8, 0x1 Items)
T9294 1525:488.301   CPU_ReadMem(4 bytes @ 0xE0001FF8)
T9294 1525:489.026   Data:  05 00 00 00
T9294 1525:489.040   Debug reg: DWT_CID[2]
T9294 1525:489.051 - 0.762ms returns 1 (0x1)
T9294 1525:489.070 JLINK_ReadMemU32(0xE0001FFC, 0x1 Items)
T9294 1525:489.083   CPU_ReadMem(4 bytes @ 0xE0001FFC)
T9294 1525:489.797   Data:  B1 00 00 00
T9294 1525:489.818   Debug reg: DWT_CID[3]
T9294 1525:489.828 - 0.759ms returns 1 (0x1)
T9294 1525:489.846 JLINK_ReadMemU32(0xE0002FD0, 0x1 Items)
T9294 1525:489.873   CPU_ReadMem(4 bytes @ 0xE0002FD0)
T9294 1525:490.614   Data:  04 00 00 00
T9294 1525:490.661   Debug reg: FP_PID4
T9294 1525:490.672 - 0.826ms returns 1 (0x1)
T9294 1525:490.691 JLINK_ReadMemU32(0xE0002FD4, 0x1 Items)
T9294 1525:490.708   CPU_ReadMem(4 bytes @ 0xE0002FD4)
T9294 1525:491.370   Data:  00 00 00 00
T9294 1525:491.386   Debug reg: FP_PID5
T9294 1525:491.397 - 0.706ms returns 1 (0x1)
T9294 1525:491.416 JLINK_ReadMemU32(0xE0002FD8, 0x1 Items)
T9294 1525:491.430   CPU_ReadMem(4 bytes @ 0xE0002FD8)
T9294 1525:492.115   Data:  00 00 00 00
T9294 1525:492.138   Debug reg: FP_PID6
T9294 1525:492.147 - 0.732ms returns 1 (0x1)
T9294 1525:492.164 JLINK_ReadMemU32(0xE0002FDC, 0x1 Items)
T9294 1525:492.176   CPU_ReadMem(4 bytes @ 0xE0002FDC)
T9294 1525:492.849   Data:  00 00 00 00
T9294 1525:492.863   Debug reg: FP_PID7
T9294 1525:492.873 - 0.709ms returns 1 (0x1)
T9294 1525:492.889 JLINK_ReadMemU32(0xE0002FE0, 0x1 Items)
T9294 1525:492.900   CPU_ReadMem(4 bytes @ 0xE0002FE0)
T9294 1525:493.671   Data:  03 00 00 00
T9294 1525:493.686   Debug reg: FP_PID[0]
T9294 1525:493.703 - 0.815ms returns 1 (0x1)
T9294 1525:493.720 JLINK_ReadMemU32(0xE0002FE4, 0x1 Items)
T9294 1525:493.732   CPU_ReadMem(4 bytes @ 0xE0002FE4)
T9294 1525:494.403   Data:  B0 00 00 00
T9294 1525:494.417   Debug reg: FP_PID[1]
T9294 1525:494.427 - 0.708ms returns 1 (0x1)
T9294 1525:494.443 JLINK_ReadMemU32(0xE0002FE8, 0x1 Items)
T9294 1525:494.454   CPU_ReadMem(4 bytes @ 0xE0002FE8)
T9294 1525:495.100   Data:  2B 00 00 00
T9294 1525:495.119   Debug reg: FP_PID[2]
T9294 1525:495.129 - 0.687ms returns 1 (0x1)
T9294 1525:495.145 JLINK_ReadMemU32(0xE0002FEC, 0x1 Items)
T9294 1525:495.157   CPU_ReadMem(4 bytes @ 0xE0002FEC)
T9294 1525:495.819   Data:  00 00 00 00
T9294 1525:495.839   Debug reg: FP_PID[3]
T9294 1525:495.849 - 0.704ms returns 1 (0x1)
T9294 1525:495.865 JLINK_ReadMemU32(0xE0002FF0, 0x1 Items)
T9294 1525:495.876   CPU_ReadMem(4 bytes @ 0xE0002FF0)
T9294 1525:496.624   Data:  0D 00 00 00
T9294 1525:496.637   Debug reg: FP_CID[0]
T9294 1525:496.647 - 0.783ms returns 1 (0x1)
T9294 1525:496.663 JLINK_ReadMemU32(0xE0002FF4, 0x1 Items)
T9294 1525:496.675   CPU_ReadMem(4 bytes @ 0xE0002FF4)
T9294 1525:497.350   Data:  E0 00 00 00
T9294 1525:497.364   Debug reg: FP_CID[1]
T9294 1525:497.373 - 0.710ms returns 1 (0x1)
T9294 1525:497.389 JLINK_ReadMemU32(0xE0002FF8, 0x1 Items)
T9294 1525:497.401   CPU_ReadMem(4 bytes @ 0xE0002FF8)
T9294 1525:498.177   Data:  05 00 00 00
T9294 1525:498.189   Debug reg: FP_CID[2]
T9294 1525:498.199 - 0.810ms returns 1 (0x1)
T9294 1525:498.215 JLINK_ReadMemU32(0xE0002FFC, 0x1 Items)
T9294 1525:498.227   CPU_ReadMem(4 bytes @ 0xE0002FFC)
T9294 1525:498.927   Data:  B1 00 00 00
T9294 1525:498.942   Debug reg: FP_CID[3]
T9294 1525:498.953 - 0.739ms returns 1 (0x1)
T9294 1525:498.972 JLINK_ReadMemU32(0xE0000FD0, 0x1 Items)
T9294 1525:498.986   CPU_ReadMem(4 bytes @ 0xE0000FD0)
T9294 1525:499.804   Data:  04 00 00 00
T9294 1525:499.825   Debug reg: ITM_PID4
T9294 1525:499.834 - 0.863ms returns 1 (0x1)
T9294 1525:499.852 JLINK_ReadMemU32(0xE0000FD4, 0x1 Items)
T9294 1525:499.864   CPU_ReadMem(4 bytes @ 0xE0000FD4)
T9294 1525:500.553   Data:  00 00 00 00
T9294 1525:500.566   Debug reg: ITM_PID5
T9294 1525:500.576 - 0.725ms returns 1 (0x1)
T9294 1525:500.592 JLINK_ReadMemU32(0xE0000FD8, 0x1 Items)
T9294 1525:500.603   CPU_ReadMem(4 bytes @ 0xE0000FD8)
T9294 1525:501.277   Data:  00 00 00 00
T9294 1525:501.293   Debug reg: ITM_PID6
T9294 1525:501.303 - 0.711ms returns 1 (0x1)
T9294 1525:501.319 JLINK_ReadMemU32(0xE0000FDC, 0x1 Items)
T9294 1525:501.331   CPU_ReadMem(4 bytes @ 0xE0000FDC)
T9294 1525:502.030   Data:  00 00 00 00
T9294 1525:502.046   Debug reg: ITM_PID7
T9294 1525:502.056 - 0.738ms returns 1 (0x1)
T9294 1525:502.072 JLINK_ReadMemU32(0xE0000FE0, 0x1 Items)
T9294 1525:502.083   CPU_ReadMem(4 bytes @ 0xE0000FE0)
T9294 1525:502.767   Data:  01 00 00 00
T9294 1525:502.779   Debug reg: ITM_PID[0]
T9294 1525:502.789 - 0.717ms returns 1 (0x1)
T9294 1525:502.805 JLINK_ReadMemU32(0xE0000FE4, 0x1 Items)
T9294 1525:502.816   CPU_ReadMem(4 bytes @ 0xE0000FE4)
T9294 1525:503.518   Data:  B0 00 00 00
T9294 1525:503.532   Debug reg: ITM_PID[1]
T9294 1525:503.542 - 0.737ms returns 1 (0x1)
T9294 1525:503.558 JLINK_ReadMemU32(0xE0000FE8, 0x1 Items)
T9294 1525:503.570   CPU_ReadMem(4 bytes @ 0xE0000FE8)
T9294 1525:504.214   Data:  3B 00 00 00
T9294 1525:504.229   Debug reg: ITM_PID[2]
T9294 1525:504.239 - 0.682ms returns 1 (0x1)
T9294 1525:504.255 JLINK_ReadMemU32(0xE0000FEC, 0x1 Items)
T9294 1525:504.267   CPU_ReadMem(4 bytes @ 0xE0000FEC)
T9294 1525:505.002   Data:  00 00 00 00
T9294 1525:505.020   Debug reg: ITM_PID[3]
T9294 1525:505.030 - 0.775ms returns 1 (0x1)
T9294 1525:505.046 JLINK_ReadMemU32(0xE0000FF0, 0x1 Items)
T9294 1525:505.058   CPU_ReadMem(4 bytes @ 0xE0000FF0)
T9294 1525:506.091   Data:  0D 00 00 00
T9294 1525:506.134   Debug reg: ITM_CID[0]
T9294 1525:506.145 - 1.100ms returns 1 (0x1)
T9294 1525:506.178 JLINK_ReadMemU32(0xE0000FF4, 0x1 Items)
T9294 1525:506.199   CPU_ReadMem(4 bytes @ 0xE0000FF4)
T9294 1525:506.978   Data:  E0 00 00 00
T9294 1525:507.003   Debug reg: ITM_CID[1]
T9294 1525:507.013 - 0.835ms returns 1 (0x1)
T9294 1525:507.036 JLINK_ReadMemU32(0xE0000FF8, 0x1 Items)
T9294 1525:507.052   CPU_ReadMem(4 bytes @ 0xE0000FF8)
T9294 1525:507.772   Data:  05 00 00 00
T9294 1525:507.788   Debug reg: ITM_CID[2]
T9294 1525:507.798 - 0.762ms returns 1 (0x1)
T9294 1525:507.815 JLINK_ReadMemU32(0xE0000FFC, 0x1 Items)
T9294 1525:507.827   CPU_ReadMem(4 bytes @ 0xE0000FFC)
T9294 1525:508.524   Data:  B1 00 00 00
T9294 1525:508.536   Debug reg: ITM_CID[3]
T9294 1525:508.546 - 0.731ms returns 1 (0x1)
T9294 1525:508.562 JLINK_ReadMemU32(0xE0040FD0, 0x1 Items)
T9294 1525:508.574   CPU_ReadMem(4 bytes @ 0xE0040FD0)
T9294 1525:509.219   Data:  04 00 00 00
T9294 1525:509.232   Debug reg: TPIU_PID4
T9294 1525:509.241 - 0.680ms returns 1 (0x1)
T9294 1525:509.258 JLINK_ReadMemU32(0xE0040FD4, 0x1 Items)
T9294 1525:509.269   CPU_ReadMem(4 bytes @ 0xE0040FD4)
T9294 1525:510.018   Data:  00 00 00 00
T9294 1525:510.032   Debug reg: TPIU_PID5
T9294 1525:510.041 - 0.784ms returns 1 (0x1)
T9294 1525:510.059 JLINK_ReadMemU32(0xE0040FD8, 0x1 Items)
T9294 1525:510.070   CPU_ReadMem(4 bytes @ 0xE0040FD8)
T9294 1525:510.752   Data:  00 00 00 00
T9294 1525:510.765   Debug reg: TPIU_PID6
T9294 1525:510.775 - 0.717ms returns 1 (0x1)
T9294 1525:510.794 JLINK_ReadMemU32(0xE0040FDC, 0x1 Items)
T9294 1525:510.805   CPU_ReadMem(4 bytes @ 0xE0040FDC)
T9294 1525:511.621   Data:  00 00 00 00
T9294 1525:511.633   Debug reg: TPIU_PID7
T9294 1525:511.642 - 0.849ms returns 1 (0x1)
T9294 1525:511.660 JLINK_ReadMemU32(0xE0040FE0, 0x1 Items)
T9294 1525:511.671   CPU_ReadMem(4 bytes @ 0xE0040FE0)
T9294 1525:512.517   Data:  A1 00 00 00
T9294 1525:512.531   Debug reg: TPIU_PID[0]
T9294 1525:512.541 - 0.881ms returns 1 (0x1)
T9294 1525:512.559 JLINK_ReadMemU32(0xE0040FE4, 0x1 Items)
T9294 1525:512.570   CPU_ReadMem(4 bytes @ 0xE0040FE4)
T9294 1525:513.244   Data:  B9 00 00 00
T9294 1525:513.257   Debug reg: TPIU_PID[1]
T9294 1525:513.267 - 0.708ms returns 1 (0x1)
T9294 1525:513.285 JLINK_ReadMemU32(0xE0040FE8, 0x1 Items)
T9294 1525:513.296   CPU_ReadMem(4 bytes @ 0xE0040FE8)
T9294 1525:514.016   Data:  0B 00 00 00
T9294 1525:514.032   Debug reg: TPIU_PID[2]
T9294 1525:514.042 - 0.757ms returns 1 (0x1)
T9294 1525:514.060 JLINK_ReadMemU32(0xE0040FEC, 0x1 Items)
T9294 1525:514.071   CPU_ReadMem(4 bytes @ 0xE0040FEC)
T9294 1525:514.725   Data:  00 00 00 00
T9294 1525:514.739   Debug reg: TPIU_PID[3]
T9294 1525:514.749 - 0.690ms returns 1 (0x1)
T9294 1525:514.767 JLINK_ReadMemU32(0xE0040FF0, 0x1 Items)
T9294 1525:514.779   CPU_ReadMem(4 bytes @ 0xE0040FF0)
T9294 1525:515.521   Data:  0D 00 00 00
T9294 1525:515.536   Debug reg: TPIU_CID[0]
T9294 1525:515.546 - 0.779ms returns 1 (0x1)
T9294 1525:515.564 JLINK_ReadMemU32(0xE0040FF4, 0x1 Items)
T9294 1525:515.575   CPU_ReadMem(4 bytes @ 0xE0040FF4)
T9294 1525:516.246   Data:  90 00 00 00
T9294 1525:516.258   Debug reg: TPIU_CID[1]
T9294 1525:516.268 - 0.705ms returns 1 (0x1)
T9294 1525:516.286 JLINK_ReadMemU32(0xE0040FF8, 0x1 Items)
T9294 1525:516.297   CPU_ReadMem(4 bytes @ 0xE0040FF8)
T9294 1525:517.023   Data:  05 00 00 00
T9294 1525:517.036   Debug reg: TPIU_CID[2]
T9294 1525:517.046 - 0.760ms returns 1 (0x1)
T9294 1525:517.064 JLINK_ReadMemU32(0xE0040FFC, 0x1 Items)
T9294 1525:517.075   CPU_ReadMem(4 bytes @ 0xE0040FFC)
T9294 1525:517.743   Data:  B1 00 00 00
T9294 1525:517.758   Debug reg: TPIU_CID[3]
T9294 1525:517.767 - 0.704ms returns 1 (0x1)
T9294 1525:517.784 JLINK_ReadMemU32(0xE0041FD0, 0x1 Items)
T9294 1525:517.795   CPU_ReadMem(4 bytes @ 0xE0041FD0)
T9294 1525:518.492   Data:  04 00 00 00
T9294 1525:518.509   Debug reg: ETM_PID4
T9294 1525:518.518 - 0.735ms returns 1 (0x1)
T9294 1525:518.534 JLINK_ReadMemU32(0xE0041FD4, 0x1 Items)
T9294 1525:518.546   CPU_ReadMem(4 bytes @ 0xE0041FD4)
T9294 1525:519.221   Data:  00 00 00 00
T9294 1525:519.240   Debug reg: ETM_PID5
T9294 1525:519.249 - 0.715ms returns 1 (0x1)
T9294 1525:519.272 JLINK_ReadMemU32(0xE0041FD8, 0x1 Items)
T9294 1525:519.287   CPU_ReadMem(4 bytes @ 0xE0041FD8)
T9294 1525:520.045   Data:  00 00 00 00
T9294 1525:520.057   Debug reg: ETM_PID6
T9294 1525:520.067 - 0.795ms returns 1 (0x1)
T9294 1525:520.103 JLINK_ReadMemU32(0xE0041FDC, 0x1 Items)
T9294 1525:520.115   CPU_ReadMem(4 bytes @ 0xE0041FDC)
T9294 1525:521.033   Data:  00 00 00 00
T9294 1525:521.048   Debug reg: ETM_PID7
T9294 1525:521.058 - 0.955ms returns 1 (0x1)
T9294 1525:521.076 JLINK_ReadMemU32(0xE0041FE0, 0x1 Items)
T9294 1525:521.089   CPU_ReadMem(4 bytes @ 0xE0041FE0)
T9294 1525:521.960   Data:  25 00 00 00
T9294 1525:521.973   Debug reg: ETM_PID[0]
T9294 1525:521.983 - 0.907ms returns 1 (0x1)
T9294 1525:521.999 JLINK_ReadMemU32(0xE0041FE4, 0x1 Items)
T9294 1525:522.011   CPU_ReadMem(4 bytes @ 0xE0041FE4)
T9294 1525:522.801   Data:  B9 00 00 00
T9294 1525:522.815   Debug reg: ETM_PID[1]
T9294 1525:522.825 - 0.826ms returns 1 (0x1)
T9294 1525:522.841 JLINK_ReadMemU32(0xE0041FE8, 0x1 Items)
T9294 1525:522.853   CPU_ReadMem(4 bytes @ 0xE0041FE8)
T9294 1525:523.672   Data:  0B 00 00 00
T9294 1525:523.689   Debug reg: ETM_PID[2]
T9294 1525:523.699 - 0.859ms returns 1 (0x1)
T9294 1525:523.715 JLINK_ReadMemU32(0xE0041FEC, 0x1 Items)
T9294 1525:523.727   CPU_ReadMem(4 bytes @ 0xE0041FEC)
T9294 1525:524.553   Data:  00 00 00 00
T9294 1525:524.565   Debug reg: ETM_PID[3]
T9294 1525:524.574 - 0.860ms returns 1 (0x1)
T9294 1525:524.591 JLINK_ReadMemU32(0xE0041FF0, 0x1 Items)
T9294 1525:524.602   CPU_ReadMem(4 bytes @ 0xE0041FF0)
T9294 1525:525.394   Data:  0D 00 00 00
T9294 1525:525.407   Debug reg: ETM_CID[0]
T9294 1525:525.417 - 0.826ms returns 1 (0x1)
T9294 1525:525.433 JLINK_ReadMemU32(0xE0041FF4, 0x1 Items)
T9294 1525:525.445   CPU_ReadMem(4 bytes @ 0xE0041FF4)
T9294 1525:526.265   Data:  90 00 00 00
T9294 1525:526.281   Debug reg: ETM_CID[1]
T9294 1525:526.291 - 0.859ms returns 1 (0x1)
T9294 1525:526.307 JLINK_ReadMemU32(0xE0041FF8, 0x1 Items)
T9294 1525:526.318   CPU_ReadMem(4 bytes @ 0xE0041FF8)
T9294 1525:527.145   Data:  05 00 00 00
T9294 1525:527.157   Debug reg: ETM_CID[2]
T9294 1525:527.167 - 0.861ms returns 1 (0x1)
T9294 1525:527.183 JLINK_ReadMemU32(0xE0041FFC, 0x1 Items)
T9294 1525:527.195   CPU_ReadMem(4 bytes @ 0xE0041FFC)
T9294 1525:528.024   Data:  B1 00 00 00
T9294 1525:528.038   Debug reg: ETM_CID[3]
T9294 1525:528.048 - 0.866ms returns 1 (0x1)
T9294 1525:528.078 JLINK_GetEmuCaps()
T9294 1525:528.089 - 0.011ms returns 0xD8EA5A73
T9294 1525:528.101 JLINK_GetEmuCaps()
T9294 1525:528.111 - 0.010ms returns 0xD8EA5A73
T9294 1525:528.201 JLINK_GetEmuCaps()
T9294 1525:528.212 - 0.011ms returns 0xD8EA5A73
T9294 1525:528.224 JLINK_GetEmuCaps()
T9294 1525:528.233 - 0.010ms returns 0xD8EA5A73
T9294 1525:528.244 JLINK_GetEmuCaps()
T9294 1525:528.253 - 0.009ms returns 0xD8EA5A73
T9294 1525:528.264 JLINK_GetEmuCaps()
T9294 1525:528.273 - 0.010ms returns 0xD8EA5A73
T9294 1525:528.284 JLINK_GetEmuCaps()
T9294 1525:528.293 - 0.010ms returns 0xD8EA5A73
T9294 1525:528.304 JLINK_GetEmuCaps()
T9294 1525:528.313 - 0.010ms returns 0xD8EA5A73
T9294 1525:528.324 JLINK_GetEmuCaps()
T9294 1525:528.333 - 0.010ms returns 0xD8EA5A73
T9294 1525:528.345 JLINK_GetEmuCaps()
T9294 1525:528.354 - 0.010ms returns 0xD8EA5A73
T9294 1525:529.069 JLINK_ReadMemU32(0xE0041000, 0x1 Items)
T9294 1525:529.094   CPU_ReadMem(4 bytes @ 0xE0041000)
T9294 1525:529.831   Data:  11 04 00 00
T9294 1525:529.845   Debug reg: ETM_CR
T9294 1525:529.855 - 0.787ms returns 1 (0x1)
T9294 1525:529.871 JLINK_WriteU32_64(0xE0041000, 0x00000410)
T9294 1525:529.887   Debug reg: ETM_CR
T9294 1525:530.933   CPU_WriteMem(4 bytes @ 0xE0041000)
T9294 1525:531.702 - 1.837ms returns 0 (0x00000000)
T9294 1525:531.727 JLINK_ReadMemU32(0xE0041004, 0x1 Items)
T9294 1525:531.742   CPU_ReadMem(4 bytes @ 0xE0041004)
T9294 1525:532.570   Data:  00 20 80 8C
T9294 1525:532.593   Debug reg: ETMCCR
T9294 1525:532.604 - 0.878ms returns 1 (0x1)
T9294 1525:532.619 JLINK_ReadMemU32(0xE00411E4, 0x1 Items)
T9294 1525:532.639   CPU_ReadMem(4 bytes @ 0xE00411E4)
T9294 1525:533.640   Data:  50 F2 14 41
T9294 1525:533.654   Debug reg: ETMIDR
T9294 1525:533.664 - 1.046ms returns 1 (0x1)
T9294 1525:533.678 JLINK_ReadMemU32(0xE0041014, 0x1 Items)
T9294 1525:533.692   CPU_ReadMem(4 bytes @ 0xE0041014)
T9294 1525:534.522   Data:  09 0D 02 00
T9294 1525:534.537   Debug reg: ETMSCR
T9294 1525:534.548 - 0.870ms returns 1 (0x1)
T9294 1525:534.562 JLINK_ReadMemU32(0xE000EDFC, 0x1 Items)
T9294 1525:534.575   CPU_ReadMem(4 bytes @ 0xE000EDFC)
T9294 1525:535.372   Data:  00 00 00 01
T9294 1525:535.386   Debug reg: DEMCR
T9294 1525:535.397 - 0.835ms returns 1 (0x1)
T9294 1525:535.411 JLINK_WriteU32_64(0xE000EDFC, 0x01000000)
T9294 1525:535.422   Debug reg: DEMCR
T9294 1525:535.438 - 0.028ms returns 0 (0x00000000)
T9294 1525:535.453 JLINK_ReadMemU32(0xE0040000, 0x1 Items)
T9294 1525:535.466   CPU_ReadMem(4 bytes @ 0xE0040000)
T9294 1525:536.237   Data:  0B 00 00 00
T9294 1525:536.250   Debug reg: TPIU_SSPSR
T9294 1525:536.261 - 0.808ms returns 1 (0x1)
T9294 1525:536.287 JLINK_ReadMemU32(0xE0041000, 0x1 Items)
T9294 1525:536.301   CPU_ReadMem(4 bytes @ 0xE0041000)
T9294 1525:536.984   Data:  11 04 00 00
T9294 1525:537.002   Debug reg: ETM_CR
T9294 1525:537.014 - 0.728ms returns 1 (0x1)
T9294 1525:537.031 JLINK_WriteU32_64(0xE0041000, 0x00001411)
T9294 1525:537.043   Debug reg: ETM_CR
T9294 1525:537.059   CPU_WriteMem(4 bytes @ 0xE0041000)
T9294 1525:537.718 - 0.688ms returns 0 (0x00000000)
T9294 1525:537.739 JLINK_ReadMemU32(0xE0041000, 0x1 Items)
T9294 1525:537.755   CPU_ReadMem(4 bytes @ 0xE0041000)
T9294 1525:538.523   Data:  11 04 00 00
T9294 1525:538.536   Debug reg: ETM_CR
T9294 1525:538.547 - 0.808ms returns 1 (0x1)
T9294 1525:538.561 JLINK_ReadMemU32(0xE0041000, 0x1 Items)
T9294 1525:538.573   CPU_ReadMem(4 bytes @ 0xE0041000)
T9294 1525:539.380   Data:  11 04 00 00
T9294 1525:539.403   Debug reg: ETM_CR
T9294 1525:539.413 - 0.853ms returns 1 (0x1)
T9294 1525:539.427 JLINK_WriteU32_64(0xE0041000, 0x011C041F)
T9294 1525:539.439   Debug reg: ETM_CR
T9294 1525:539.453   CPU_WriteMem(4 bytes @ 0xE0041000)
T9294 1525:540.143 - 0.718ms returns 0 (0x00000000)
T9294 1525:540.166 JLINK_ReadMemU32(0xE0041000, 0x1 Items)
T9294 1525:540.182   CPU_ReadMem(4 bytes @ 0xE0041000)
T9294 1525:541.109   Data:  11 04 00 00
T9294 1525:541.126   Debug reg: ETM_CR
T9294 1525:541.137 - 0.972ms returns 1 (0x1)
T9294 1525:542.227 JLINK_SWO_Control(JLINKARM_SWO_CMD_GET_SPEED_INFO, ...)
T9294 1525:542.745 - 0.520ms returns 0x00
T9294 1525:542.769 JLINK_ReadMemU32(0xE0001004, 0x1 Items)
T9294 1525:542.790   CPU_ReadMem(4 bytes @ 0xE0001004)
T9294 1525:543.523   Data:  9C AF A0 97
T9294 1525:543.535   Debug reg: DWT_CYCCNT
T9294 1525:543.545 - 0.776ms returns 1 (0x1)
T9294 1525:543.560 JLINK_GetEmuCaps()
T9294 1525:543.570 - 0.010ms returns 0xD8EA5A73
T9294 1525:543.580 JLINK_GetEmuCaps()
T9294 1525:543.589 - 0.009ms returns 0xD8EA5A73
T9294 1525:544.031 JLINK_GetEmuCaps()
T9294 1525:544.044 - 0.014ms returns 0xD8EA5A73
T9294 1525:544.054 JLINK_GetEmuCaps()
T9294 1525:544.063 - 0.009ms returns 0xD8EA5A73
T9294 1525:544.072 JLINK_GetEmuCaps()
T9294 1525:544.078 - 0.007ms returns 0xD8EA5A73
T9294 1525:544.087 JLINK_GetEmuCaps()
T9294 1525:544.093 - 0.007ms returns 0xD8EA5A73
T9294 1525:544.206 JLINK_EMU_HasCapEx(0x00000025)
T9294 1525:544.217 - 0.011ms returns 0
T9294 1525:544.226 JLINK_EMU_COM_Read(Channel = 0x10001, NumBytes = 0x0C)
T9294 1525:544.237    -- EMUCOM is not supported by connected emulator
T9294 1525:544.245 - 0.019ms returns -1
T9294 1525:554.381 JLINK_ReadMemU32(0x40023C14, 0x1 Items)
T9294 1525:554.426   CPU_ReadMem(4 bytes @ 0x40023C14)
T9294 1525:555.245   Data:  ED AA FF 0F
T9294 1525:555.252 - 0.871ms returns 1 (0x1)
T9294 1525:555.271 JLINK_GetEmuCaps()
T9294 1525:555.276 - 0.005ms returns 0xD8EA5A73
T9294 1525:555.281 JLINK_GetEmuCaps()
T9294 1525:555.285 - 0.004ms returns 0xD8EA5A73
T9294 1525:555.313 JLINK_ReadMemU32(0x4002380C, 0x1 Items)
T9294 1525:555.356   CPU_ReadMem(4 bytes @ 0x4002380C)
T9294 1525:556.005   Data:  00 00 00 00
T9294 1525:556.014 - 0.701ms returns 1 (0x1)
T9294 1525:556.021 JLINK_GetEmuCaps()
T9294 1525:556.025 - 0.004ms returns 0xD8EA5A73
T9294 1525:556.030 JLINK_GetEmuCaps()
T9294 1525:556.034 - 0.004ms returns 0xD8EA5A73
T9294 1525:556.079 JLINK_ReadMemU32(0x40023808, 0x1 Items)
T9294 1525:556.087   CPU_ReadMem(4 bytes @ 0x40023808)
T9294 1525:556.779   Data:  00 00 00 00
T9294 1525:556.784 - 0.705ms returns 1 (0x1)
T9294 1525:556.791 JLINK_GetEmuCaps()
T9294 1525:556.795 - 0.005ms returns 0xD8EA5A73
T9294 1525:556.800 JLINK_GetEmuCaps()
T9294 1525:556.804 - 0.004ms returns 0xD8EA5A73
T9294 1525:556.819 JLINK_ReadMemU32(0x40023800, 0x1 Items)
T9294 1525:556.825   CPU_ReadMem(4 bytes @ 0x40023800)
T9294 1525:557.454   Data:  83 75 00 00
T9294 1525:557.459 - 0.640ms returns 1 (0x1)
T9294 1525:557.465 JLINK_GetEmuCaps()
T9294 1525:557.469 - 0.004ms returns 0xD8EA5A73
T9294 1525:557.474 JLINK_GetEmuCaps()
T9294 1525:557.478 - 0.004ms returns 0xD8EA5A73
T9294 1525:557.497 JLINK_BeginDownload(Flags = 0x00000001)
T9294 1525:557.501 - 0.005ms
T9294 1525:557.512 JLINK_WriteMem(0x4002380C, 0x4 Bytes, ...)
T9294 1525:557.517   Data:  00 00 00 00
T9294 1525:558.074   CPU_WriteMem(4 bytes @ 0x4002380C)
T9294 1525:558.773 - 1.261ms returns 0x4
T9294 1525:558.781 JLINK_EndDownload()
T9294 1525:558.786 - 0.005ms returns 0 (0x0)
T9294 1525:558.802 JLINK_BeginDownload(Flags = 0x00000001)
T9294 1525:558.807 - 0.004ms
T9294 1525:558.812 JLINK_WriteMem(0x40023808, 0x4 Bytes, ...)
T9294 1525:558.817   Data:  00 00 00 00
T9294 1525:558.823   CPU_WriteMem(4 bytes @ 0x40023808)
T9294 1525:559.451 - 0.639ms returns 0x4
T9294 1525:559.458 JLINK_EndDownload()
T9294 1525:559.463 - 0.004ms returns 0 (0x0)
T9294 1525:559.475 JLINK_BeginDownload(Flags = 0x00000001)
T9294 1525:559.480 - 0.004ms
T9294 1525:559.484 JLINK_WriteMem(0x40023800, 0x4 Bytes, ...)
T9294 1525:559.489   Data:  83 00 01 00
T9294 1525:559.494   CPU_WriteMem(4 bytes @ 0x40023800)
T9294 1525:560.151 - 0.668ms returns 0x4
T9294 1525:560.160 JLINK_EndDownload()
T9294 1525:560.164 - 0.004ms returns 0 (0x0)
T9294 1525:560.177 JLINK_ReadMemU32(0x40023C14, 0x1 Items)
T9294 1525:560.183   CPU_ReadMem(4 bytes @ 0x40023C14)
T9294 1525:560.846   Data:  ED AA FF 0F
T9294 1525:560.853 - 0.676ms returns 1 (0x1)
T9294 1525:560.858 JLINK_GetEmuCaps()
T9294 1525:560.862 - 0.004ms returns 0xD8EA5A73
T9294 1525:560.867 JLINK_GetEmuCaps()
T9294 1525:560.871 - 0.004ms returns 0xD8EA5A73
T9294 1525:566.889 JLINK_GetSpeed()
T9294 1525:566.907 - 0.018ms returns 1000
T9294 1525:566.913 JLINK_SetMaxSpeed()
T9294 1525:567.133 - 0.219ms
T9294 1525:579.668 JLINK_BeginDownload(Flags = 0x00000003)
T9294 1525:579.710 - 0.042ms
T9294 1525:594.811 JLINK_WriteMem(0x20000000, 0x20 Bytes, ...)
T9294 1525:594.836   Data:  00 00 02 20 95 03 00 20 00 00 00 00 00 00 00 00 ...
T9294 1525:595.433   CPU_WriteMem(32 bytes @ 0x20000000)
T9294 1525:596.522 - 1.713ms returns 0x20
T9294 1525:596.558 JLINK_WriteMem(0x20000040, 0x3C0 Bytes, ...)
T9294 1525:596.566   Data:  1C B5 1E 4C 63 68 A2 68 21 69 04 F1 18 00 01 90 ...
T9294 1525:596.579   CPU_WriteMem(960 bytes @ 0x20000040)
T9294 1525:606.064   CPU_ReadMem(960 bytes @ 0x20000040)
T9294 1525:616.233    -- Updating C cache (960 bytes @ 0x20000040)
T9294 1525:616.260    -- Read from C cache (960 bytes @ 0x20000040)
T9294 1525:616.266 - 19.708ms returns 0x3C0
T9294 1525:616.934 JLINK_EndDownload()
T9294 1525:616.944 - 0.010ms returns 0 (0x0)
T9294 1525:621.932 JLINK_ReadMemU32(0x20000000, 0x1 Items)
T9294 1525:621.982   CPU_ReadMem(64 bytes @ 0x20000000)
T9294 1525:623.266    -- Updating C cache (64 bytes @ 0x20000000)
T9294 1525:623.277    -- Read from C cache (4 bytes @ 0x20000000)
T9294 1525:623.283   Data:  00 00 02 20
T9294 1525:623.287 - 1.355ms returns 1 (0x1)
T9294 1525:623.295 JLINK_ReadMemU32(0x20000004, 0x1 Items)
T9294 1525:623.301    -- Read from C cache (4 bytes @ 0x20000004)
T9294 1525:623.305   Data:  95 03 00 20
T9294 1525:623.362 - 0.067ms returns 1 (0x1)
T9294 1525:623.372 JLINK_ReadRegs(NumRegs = 1, Indexes: 15)
T9294 1525:623.381    -- R15 (PC)=0x800795C
T9294 1525:623.386 - 0.014ms returns 0x00
T9294 1525:623.392 JLINK_WriteReg(R15 (PC), 0x20000394)
T9294 1525:623.402 - 0.009ms returns 0
T9294 1525:623.408 JLINK_ReadRegs(NumRegs = 1, Indexes: 17)
T9294 1525:623.413    -- MSP=0x20003080
T9294 1525:623.417 - 0.009ms returns 0x00
T9294 1525:623.423 JLINK_ReadRegs(NumRegs = 1, Indexes: 18)
T9294 1525:623.427    -- PSP=0x00
T9294 1525:623.431 - 0.008ms returns 0x00
T9294 1525:623.436 JLINK_ReadRegs(NumRegs = 1, Indexes: 20)
T9294 1525:623.441    -- CFBP=0x00
T9294 1525:623.444 - 0.008ms returns 0x00
T9294 1525:623.449 JLINK_WriteReg(MSP, 0x20020000)
T9294 1525:623.454 - 0.004ms returns 0
T9294 1525:623.459 JLINK_ReadRegs(NumRegs = 1, Indexes: 0)
T9294 1525:623.464    -- R0=0x00
T9294 1525:623.468 - 0.009ms returns 0x00
T9294 1525:623.473 JLINK_ReadRegs(NumRegs = 1, Indexes: 1)
T9294 1525:623.477    -- R1=0x00
T9294 1525:623.481 - 0.008ms returns 0x00
T9294 1525:623.486 JLINK_ReadRegs(NumRegs = 1, Indexes: 2)
T9294 1525:623.490    -- R2=0x00
T9294 1525:623.494 - 0.008ms returns 0x00
T9294 1525:623.499 JLINK_ReadRegs(NumRegs = 1, Indexes: 3)
T9294 1525:623.503    -- R3=0x00
T9294 1525:623.507 - 0.008ms returns 0x00
T9294 1525:623.513 JLINK_ReadRegs(NumRegs = 1, Indexes: 4)
T9294 1525:623.517    -- R4=0x00
T9294 1525:623.520 - 0.007ms returns 0x00
T9294 1525:623.524 JLINK_ReadRegs(NumRegs = 1, Indexes: 5)
T9294 1525:623.528    -- R5=0x00
T9294 1525:623.532 - 0.008ms returns 0x00
T9294 1525:623.536 JLINK_ReadRegs(NumRegs = 1, Indexes: 6)
T9294 1525:623.540    -- R6=0x00
T9294 1525:623.544 - 0.007ms returns 0x00
T9294 1525:623.548 JLINK_ReadRegs(NumRegs = 1, Indexes: 7)
T9294 1525:623.552    -- R7=0x00
T9294 1525:623.555 - 0.007ms returns 0x00
T9294 1525:623.560 JLINK_ReadRegs(NumRegs = 1, Indexes: 8)
T9294 1525:623.565    -- R8=0x00
T9294 1525:623.568 - 0.009ms returns 0x00
T9294 1525:623.573 JLINK_ReadRegs(NumRegs = 1, Indexes: 9)
T9294 1525:623.577    -- R9=0x00
T9294 1525:623.580 - 0.007ms returns 0x00
T9294 1525:623.585 JLINK_ReadRegs(NumRegs = 1, Indexes: 10)
T9294 1525:623.589    -- R10=0x00
T9294 1525:623.593 - 0.008ms returns 0x00
T9294 1525:623.597 JLINK_ReadRegs(NumRegs = 1, Indexes: 11)
T9294 1525:623.605    -- R11=0x00
T9294 1525:623.609 - 0.012ms returns 0x00
T9294 1525:623.613 JLINK_ReadRegs(NumRegs = 1, Indexes: 12)
T9294 1525:623.618    -- R12=0x00
T9294 1525:623.621 - 0.008ms returns 0x00
T9294 1525:623.626 JLINK_ReadRegs(NumRegs = 1, Indexes: 17)
T9294 1525:623.630    -- MSP=0x20020000
T9294 1525:623.634 - 0.008ms returns 0x00
T9294 1525:623.638 JLINK_ReadRegs(NumRegs = 1, Indexes: 18)
T9294 1525:623.643    -- PSP=0x00
T9294 1525:623.646 - 0.008ms returns 0x00
T9294 1525:623.651 JLINK_ReadRegs(NumRegs = 1, Indexes: 14)
T9294 1525:623.655    -- R14=0xFFFFFFFF
T9294 1525:623.658 - 0.008ms returns 0x00
T9294 1525:623.663 JLINK_ReadRegs(NumRegs = 1, Indexes: 15)
T9294 1525:623.667    -- R15 (PC)=0x20000394
T9294 1525:623.671 - 0.008ms returns 0x00
T9294 1525:623.675 JLINK_ReadRegs(NumRegs = 1, Indexes: 16)
T9294 1525:623.679    -- XPSR=0x1000000
T9294 1525:623.683 - 0.008ms returns 0x00
T9294 1525:623.688 JLINK_ReadRegs(NumRegs = 1, Indexes: 20)
T9294 1525:623.692    -- CFBP=0x00
T9294 1525:623.695 - 0.008ms returns 0x00
T9294 1525:623.701 JLINK_WriteReg(XPSR, 0x01000000)
T9294 1525:623.705 - 0.004ms returns 0
T9294 1525:623.710 JLINK_ReadMemU32(0xE000EDFC, 0x1 Items)
T9294 1525:623.716   Data:  00 00 00 01
T9294 1525:623.720   Debug reg: DEMCR
T9294 1525:623.724 - 0.014ms returns 1 (0x1)
T9294 1525:623.729 JLINK_WriteU32_64(0xE000EDFC, 0x01000000)
T9294 1525:623.733   Debug reg: DEMCR
T9294 1525:623.740 - 0.011ms returns 0 (0x00000000)
T9294 1525:623.746 JLINK_ReadMemU32(0xE0001004, 0x1 Items)
T9294 1525:623.751   Data:  9C AF A0 97
T9294 1525:623.754   Debug reg: DWT_CYCCNT
T9294 1525:623.758 - 0.012ms returns 1 (0x1)
T9294 1525:623.775 JLINK_ReadMemU32(0xE0001004, 0x1 Items)
T9294 1525:623.780   Data:  9C AF A0 97
T9294 1525:623.784   Debug reg: DWT_CYCCNT
T9294 1525:623.788 - 0.013ms returns 1 (0x1)
T9294 1525:624.981 JLINK_ReadRegs(NumRegs = 1, Indexes: 15)
T9294 1525:624.997    -- R15 (PC)=0x20000394
T9294 1525:625.003 - 0.021ms returns 0x00
T9294 1525:625.204 JLINK_BeginDownload(Flags = 0x00000001)
T9294 1525:625.211 - 0.007ms
T9294 1525:625.220 JLINK_WriteMem(0x2001EF98, 0x4 Bytes, ...)
T9294 1525:625.225   Data:  00 00 00 00
T9294 1525:625.236   CPU_WriteMem(4 bytes @ 0x2001EF98)
T9294 1525:625.884 - 0.667ms returns 0x4
T9294 1525:625.894 JLINK_EndDownload()
T9294 1525:625.899 - 0.005ms returns 0 (0x0)
T9294 1525:625.956 JLINK_BeginDownload(Flags = 0x00000001)
T9294 1525:625.961 - 0.005ms
T9294 1525:625.969 JLINK_WriteMem(0x2001EF84, 0x14 Bytes, ...)
T9294 1525:625.974   Data:  00 00 00 08 00 00 00 00 00 00 00 08 00 04 00 20 ...
T9294 1525:625.981   CPU_WriteMem(20 bytes @ 0x2001EF84)
T9294 1525:626.834 - 0.870ms returns 0x14
T9294 1525:626.866 JLINK_EndDownload()
T9294 1525:626.870 - 0.004ms returns 0 (0x0)
T9294 1525:626.895 JLINK_WriteReg(R15 (PC), 0x20000394)
T9294 1525:626.900 - 0.005ms returns 0
T9294 1525:626.906 JLINK_ReadRegs(NumRegs = 1, Indexes: 0)
T9294 1525:626.912    -- R0=0x00
T9294 1525:626.916 - 0.010ms returns 0x00
T9294 1525:626.921 JLINK_ReadRegs(NumRegs = 1, Indexes: 1)
T9294 1525:626.925    -- R1=0x00
T9294 1525:626.929 - 0.008ms returns 0x00
T9294 1525:626.934 JLINK_ReadRegs(NumRegs = 1, Indexes: 2)
T9294 1525:626.939    -- R2=0x00
T9294 1525:626.942 - 0.008ms returns 0x00
T9294 1525:626.947 JLINK_ReadRegs(NumRegs = 1, Indexes: 3)
T9294 1525:626.952    -- R3=0x00
T9294 1525:626.956 - 0.008ms returns 0x00
T9294 1525:626.960 JLINK_ReadRegs(NumRegs = 1, Indexes: 4)
T9294 1525:626.965    -- R4=0x00
T9294 1525:626.969 - 0.008ms returns 0x00
T9294 1525:626.973 JLINK_ReadRegs(NumRegs = 1, Indexes: 5)
T9294 1525:626.978    -- R5=0x00
T9294 1525:626.982 - 0.009ms returns 0x00
T9294 1525:626.987 JLINK_ReadRegs(NumRegs = 1, Indexes: 6)
T9294 1525:626.991    -- R6=0x00
T9294 1525:626.995 - 0.008ms returns 0x00
T9294 1525:627.000 JLINK_ReadRegs(NumRegs = 1, Indexes: 7)
T9294 1525:627.004    -- R7=0x00
T9294 1525:627.008 - 0.008ms returns 0x00
T9294 1525:627.013 JLINK_ReadRegs(NumRegs = 1, Indexes: 8)
T9294 1525:627.017    -- R8=0x00
T9294 1525:627.021 - 0.008ms returns 0x00
T9294 1525:627.025 JLINK_ReadRegs(NumRegs = 1, Indexes: 9)
T9294 1525:627.030    -- R9=0x00
T9294 1525:627.034 - 0.008ms returns 0x00
T9294 1525:627.038 JLINK_ReadRegs(NumRegs = 1, Indexes: 10)
T9294 1525:627.043    -- R10=0x00
T9294 1525:627.047 - 0.008ms returns 0x00
T9294 1525:627.051 JLINK_ReadRegs(NumRegs = 1, Indexes: 11)
T9294 1525:627.056    -- R11=0x00
T9294 1525:627.060 - 0.009ms returns 0x00
T9294 1525:627.066 JLINK_ReadRegs(NumRegs = 1, Indexes: 12)
T9294 1525:627.069    -- R12=0x00
T9294 1525:627.073 - 0.007ms returns 0x00
T9294 1525:627.077 JLINK_ReadRegs(NumRegs = 1, Indexes: 17)
T9294 1525:627.081    -- MSP=0x20020000
T9294 1525:627.085 - 0.008ms returns 0x00
T9294 1525:627.090 JLINK_ReadRegs(NumRegs = 1, Indexes: 18)
T9294 1525:627.094    -- PSP=0x00
T9294 1525:627.098 - 0.008ms returns 0x00
T9294 1525:627.103 JLINK_ReadRegs(NumRegs = 1, Indexes: 14)
T9294 1525:627.107    -- R14=0xFFFFFFFF
T9294 1525:627.111 - 0.008ms returns 0x00
T9294 1525:627.116 JLINK_ReadRegs(NumRegs = 1, Indexes: 15)
T9294 1525:627.120    -- R15 (PC)=0x20000394
T9294 1525:627.124 - 0.008ms returns 0x00
T9294 1525:627.129 JLINK_ReadRegs(NumRegs = 1, Indexes: 16)
T9294 1525:627.133    -- XPSR=0x1000000
T9294 1525:627.137 - 0.008ms returns 0x00
T9294 1525:627.142 JLINK_ReadRegs(NumRegs = 1, Indexes: 20)
T9294 1525:627.146    -- CFBP=0x00
T9294 1525:627.150 - 0.008ms returns 0x00
T9294 1525:627.156 JLINK_WriteReg(XPSR, 0x01000000)
T9294 1525:627.160 - 0.004ms returns 0
T9294 1525:627.232 JLINK_ReadMemU16(0x200000C0, 0x1 Items)
T9294 1525:627.238    -- Read from C cache (2 bytes @ 0x200000C0)
T9294 1525:627.269   Data:  FE E7
T9294 1525:627.274 - 0.042ms returns 1 (0x1)
T9294 1525:627.280 JLINK_GetEmuCaps()
T9294 1525:627.284 - 0.004ms returns 0xD8EA5A73
T9294 1525:627.289 JLINK_GetEmuCaps()
T9294 1525:627.292 - 0.004ms returns 0xD8EA5A73
T9294 1525:627.308 JLINK_SetBPEx(Addr = 0x200000C0, Type = 0xFFFFFFF2)
T9294 1525:627.317   CPU_ReadMem(2 bytes @ 0x200000C0)
T9294 1525:627.875 - 0.567ms returns 0x00000001
T9294 1525:627.884 JLINK_GetEmuCaps()
T9294 1525:627.888 - 0.004ms returns 0xD8EA5A73
T9294 1525:627.893 JLINK_GetEmuCaps()
T9294 1525:627.897 - 0.004ms returns 0xD8EA5A73
T9294 1525:627.901 JLINK_WriteVectorCatch(0x00000000)
T9294 1525:627.907 - 0.006ms returns 0
T57D8 1525:628.234 JLINK_ReadRegs(NumRegs = 1, Indexes: 15)
T57D8 1525:628.260    -- R15 (PC)=0x20000394
T57D8 1525:628.266 - 0.032ms returns 0x00
T57D8 1525:628.289 JLINK_ReadMemU16(0x20000394, 0x1 Items)
T57D8 1525:628.297    -- Read from C cache (2 bytes @ 0x20000394)
T57D8 1525:628.302   Data:  FF F7
T57D8 1525:628.307 - 0.018ms returns 1 (0x1)
T57D8 1525:628.312 JLINK_GetEmuCaps()
T57D8 1525:628.317 - 0.004ms returns 0xD8EA5A73
T57D8 1525:628.322 JLINK_GetEmuCaps()
T57D8 1525:628.326 - 0.004ms returns 0xD8EA5A73
T57D8 1525:628.332 JLINK_GetEmuCaps()
T57D8 1525:628.336 - 0.004ms returns 0xD8EA5A73
T57D8 1525:628.340 JLINK_GetEmuCaps()
T57D8 1525:628.344 - 0.004ms returns 0xD8EA5A73
T57D8 1525:628.349 JLINK_WriteVectorCatch(0x00000000)
T57D8 1525:628.357 - 0.008ms returns 0
T57D8 1525:628.367 JLINK_ReadMemU32(0xE000EDFC, 0x1 Items)
T57D8 1525:628.373   Data:  00 00 00 01
T57D8 1525:628.379   Debug reg: DEMCR
T57D8 1525:628.383 - 0.016ms returns 1 (0x1)
T57D8 1525:628.388 JLINK_WriteU32_64(0xE000EDFC, 0x01000000)
T57D8 1525:628.392   Debug reg: DEMCR
T57D8 1525:628.398   CPU_WriteMem(2 bytes @ 0x200000C0)
T57D8 1525:629.014 - 0.628ms returns 0 (0x00000000)
T57D8 1525:629.029 JLINK_ReadMemU32(0xE0002000, 0x1 Items)
T57D8 1525:629.036   CPU_ReadMem(4 bytes @ 0xE0002000)
T57D8 1525:629.559   Data:  61 02 00 00
T57D8 1525:629.596 - 0.567ms returns 1 (0x1)
T57D8 1525:629.602 JLINK_ReadMemU32(0xE0002000, 0x1 Items)
T57D8 1525:629.608   CPU_ReadMem(4 bytes @ 0xE0002000)
T57D8 1525:630.080   Data:  61 02 00 00
T57D8 1525:630.096 - 0.494ms returns 1 (0x1)
T57D8 1525:630.104 JLINK_ReadMemU32(0xE0001000, 0x1 Items)
T57D8 1525:630.113   CPU_ReadMem(4 bytes @ 0xE0001000)
T57D8 1525:630.617   Data:  01 00 00 40
T57D8 1525:630.626   Debug reg: DWT_CTRL
T57D8 1525:630.631 - 0.527ms returns 1 (0x1)
T57D8 1525:630.637 JLINK_ReadMemU32(0xE000EDFC, 0x1 Items)
T57D8 1525:630.644   Data:  00 00 00 01
T57D8 1525:630.649   Debug reg: DEMCR
T57D8 1525:630.653 - 0.016ms returns 1 (0x1)
T57D8 1525:630.658 JLINK_WriteU32_64(0xE000EDFC, 0x01000000)
T57D8 1525:630.663   Debug reg: DEMCR
T57D8 1525:630.669 - 0.011ms returns 0 (0x00000000)
T57D8 1525:630.674 JLINK_WriteU32_64(0xE0001028, 0x00000000)
T57D8 1525:630.679   Debug reg: DWT_FUNC[0]
T57D8 1525:630.684 - 0.010ms returns 0 (0x00000000)
T57D8 1525:630.689 JLINK_WriteU32_64(0xE0001038, 0x00000000)
T57D8 1525:630.694   Debug reg: DWT_FUNC[1]
T57D8 1525:630.699 - 0.009ms returns 0 (0x00000000)
T57D8 1525:630.704 JLINK_WriteU32_64(0xE0001048, 0x00000000)
T57D8 1525:630.708   Debug reg: DWT_FUNC[2]
T57D8 1525:630.713 - 0.009ms returns 0 (0x00000000)
T57D8 1525:630.718 JLINK_WriteU32_64(0xE0001058, 0x00000000)
T57D8 1525:630.722   Debug reg: DWT_FUNC[3]
T57D8 1525:630.727 - 0.009ms returns 0 (0x00000000)
T57D8 1525:630.736 JLINK_Go()
T57D8 1525:630.745   CPU_ReadMem(4 bytes @ 0xE0001000)
T57D8 1525:631.343   CPU_WriteMem(4 bytes @ 0xE0001028)
T57D8 1525:631.354   CPU_WriteMem(4 bytes @ 0xE0001038)
T57D8 1525:631.359   CPU_WriteMem(4 bytes @ 0xE0001048)
T57D8 1525:631.364   CPU_WriteMem(4 bytes @ 0xE0001058)
T57D8 1525:631.368   CPU_WriteMem(4 bytes @ 0xE0002008)
T57D8 1525:631.373   CPU_WriteMem(4 bytes @ 0xE000200C)
T57D8 1525:631.377   CPU_WriteMem(4 bytes @ 0xE0002010)
T57D8 1525:631.381   CPU_WriteMem(4 bytes @ 0xE0002014)
T57D8 1525:631.391   CPU_WriteMem(4 bytes @ 0xE0002018)
T57D8 1525:631.395   CPU_WriteMem(4 bytes @ 0xE000201C)
T57D8 1525:636.524 - 5.806ms
T57D8 1525:638.161 JLINK_IsHalted()
T57D8 1525:642.901   CPU_ReadMem(2 bytes @ 0x200000C0)
T57D8 1525:643.517 - 5.356ms returns TRUE
T57D8 1525:643.535 JLINK_GetEmuCaps()
T57D8 1525:643.540 - 0.005ms returns 0xD8EA5A73
T57D8 1525:643.545 JLINK_GetEmuCaps()
T57D8 1525:643.549 - 0.004ms returns 0xD8EA5A73
T57D8 1525:643.555 JLINK_ReadMemU32(0xE000EDFC, 0x1 Items)
T57D8 1525:643.564   Data:  00 00 00 01
T57D8 1525:643.569   Debug reg: DEMCR
T57D8 1525:643.573 - 0.018ms returns 1 (0x1)
T57D8 1525:643.624 JLINK_WriteU32_64(0xE000EDFC, 0x01000000)
T57D8 1525:643.631   Debug reg: DEMCR
T57D8 1525:643.639 - 0.014ms returns 0 (0x00000000)
T57D8 1525:643.645 JLINK_WriteVectorCatch(0x00000000)
T57D8 1525:643.651 - 0.006ms returns 0
T57D8 1525:643.656 JLINK_WriteU32_64(0xE0001028, 0x00000000)
T57D8 1525:643.661   Debug reg: DWT_FUNC[0]
T57D8 1525:643.667 - 0.011ms returns 0 (0x00000000)
T57D8 1525:643.672 JLINK_WriteU32_64(0xE0001038, 0x00000000)
T57D8 1525:643.677   Debug reg: DWT_FUNC[1]
T57D8 1525:643.681 - 0.009ms returns 0 (0x00000000)
T57D8 1525:643.687 JLINK_WriteU32_64(0xE0001048, 0x00000000)
T57D8 1525:643.691   Debug reg: DWT_FUNC[2]
T57D8 1525:643.695 - 0.009ms returns 0 (0x00000000)
T57D8 1525:643.700 JLINK_WriteU32_64(0xE0001058, 0x00000000)
T57D8 1525:643.704   Debug reg: DWT_FUNC[3]
T57D8 1525:643.709 - 0.008ms returns 0 (0x00000000)
T57D8 1525:643.717 JLINK_ReadRegs(NumRegs = 1, Indexes: 15)
T57D8 1525:643.723    -- R15 (PC)=0x200000C0
T57D8 1525:643.727 - 0.009ms returns 0x00
T57D8 1525:643.750 JLINK_ReadMemU16(0x200000C0, 0x1 Items)
T57D8 1525:643.756    -- Merging existing BP[0]: 0xE7FE @ 0x200000C0
